!Keysight Technologies,N5224A,MY51441707,A.10.40.14
!Date: Friday, January 31, 2020 11:12:12
!Correction: S11(Full 2 Port(1,2)) 
!S21(Full 2 Port(1,2)) 
!S12(Full 2 Port(1,2)) 
!S22(Full 2 Port(1,2)) 
!S2P File: Measurements: S11, S21, S12, S22:
# Hz S  dB   R 50
8200000000 -0.76854718 175.54002 -20.560661 -107.93988 -20.550453 -108.18678 -0.6577875 -179.21294
8205250000 -0.7716679 175.51674 -20.558338 -108.01046 -20.552052 -108.17995 -0.66033012 -179.24998
8210500000 -0.76314843 175.47612 -20.543478 -108.00281 -20.528055 -108.21999 -0.65965927 -179.21509
8215750000 -0.76803327 175.45679 -20.522539 -107.97495 -20.499134 -108.20409 -0.65551114 -179.20935
8221000000 -0.76795477 175.42865 -20.507372 -108.02917 -20.480427 -108.15256 -0.65963304 -179.22948
8226250000 -0.76783329 175.40976 -20.495861 -107.99263 -20.476381 -108.15434 -0.65855163 -179.24191
8231500000 -0.76942241 175.37843 -20.467543 -108.00801 -20.456707 -108.13791 -0.66058946 -179.29593
8236750000 -0.76909953 175.36317 -20.457489 -108.0079 -20.446871 -108.14438 -0.6640715 -179.28447
8242000000 -0.76823312 175.35124 -20.447165 -107.99147 -20.435272 -108.16312 -0.65955955 -179.29097
8247250000 -0.7747249 175.32253 -20.43396 -108.01936 -20.421709 -108.19999 -0.66219819 -179.32889
8252500000 -0.76894122 175.33102 -20.417528 -108.04134 -20.421846 -108.14748 -0.66088587 -179.3168
8257750000 -0.77443355 175.32097 -20.405819 -107.86867 -20.387627 -108.15921 -0.66567129 -179.29494
8263000000 -0.76851267 175.29886 -20.379822 -107.92666 -20.378386 -108.20928 -0.665806 -179.33119
8268250000 -0.7666418 175.27286 -20.365755 -107.91164 -20.376215 -108.14045 -0.66295695 -179.34929
8273500000 -0.77383679 175.28033 -20.349913 -108.02696 -20.349995 -108.26247 -0.66761696 -179.32532
8278750000 -0.76963031 175.3042 -20.336464 -107.95118 -20.324543 -108.12042 -0.66371876 -179.35588
8284000000 -0.76604801 175.29633 -20.320881 -107.85524 -20.318695 -108.06847 -0.66406608 -179.36264
8289250000 -0.75677305 175.29233 -20.301741 -107.98779 -20.300619 -108.10384 -0.66695416 -179.38686
8294500000 -0.75999457 175.32378 -20.277498 -108.02469 -20.282379 -108.23296 -0.66712058 -179.38467
8299750000 -0.7585519 175.30634 -20.295099 -107.92781 -20.260069 -108.13258 -0.67110819 -179.45413
8305000000 -0.75357485 175.32333 -20.263924 -107.9617 -20.237364 -108.11496 -0.67714339 -179.47197
8310250000 -0.75323284 175.34685 -20.235798 -107.90993 -20.225782 -108.14156 -0.67499405 -179.44905
8315500000 -0.76017916 175.3708 -20.231987 -107.95187 -20.207508 -108.09975 -0.68064201 -179.51129
8320750000 -0.75442767 175.37827 -20.206787 -107.83022 -20.197851 -107.85545 -0.6872142 -179.49585
8326000000 -0.75343513 175.38562 -20.199669 -107.79443 -20.194855 -108.09399 -0.68555987 -179.54881
8331250000 -0.75042236 175.39839 -20.179022 -107.86865 -20.167456 -108.0755 -0.69102621 -179.60641
8336500000 -0.74918562 175.42532 -20.167711 -107.87307 -20.149786 -108.03972 -0.68774188 -179.61752
8341750000 -0.74879354 175.47057 -20.150007 -107.80152 -20.133211 -108.05145 -0.69603223 -179.64198
8347000000 -0.73826528 175.4882 -20.123699 -107.90188 -20.121433 -107.95301 -0.69752163 -179.68289
8352250000 -0.74445671 175.5098 -20.111404 -107.80124 -20.104267 -108.07635 -0.69425714 -179.69379
8357500000 -0.74196255 175.53191 -20.090508 -107.76237 -20.088346 -107.92906 -0.69949478 -179.71579
8362750000 -0.7394672 175.5392 -20.08362 -107.80155 -20.075075 -107.94897 -0.69966578 -179.75575
8368000000 -0.73423362 175.5528 -20.062269 -107.81904 -20.063652 -107.8899 -0.69695151 -179.79256
8373250000 -0.73378146 175.55475 -20.048319 -107.74573 -20.033533 -107.92503 -0.69938207 -179.86292
8378500000 -0.73238057 175.56905 -20.027807 -107.69167 -19.996138 -107.96181 -0.70506954 -179.86829
8383750000 -0.72937691 175.60667 -20.020739 -107.70712 -20.015137 -107.87814 -0.7099061 -179.91129
8389000000 -0.72625184 175.65283 -19.995708 -107.73724 -19.974211 -107.82838 -0.70866829 -179.87474
8394250000 -0.73111725 175.68579 -19.9807 -107.60707 -19.956673 -107.9664 -0.7122786 -179.93733
8399500000 -0.72401577 175.72675 -19.953051 -107.65298 -19.947817 -107.97318 -0.7159903 -179.96017
8404750000 -0.71906239 175.70551 -19.936956 -107.62886 -19.936129 -107.77693 -0.71468717 -179.97205
8410000000 -0.7185902 175.78046 -19.915609 -107.54732 -19.916563 -107.7804 -0.71519065 179.99089
8415250000 -0.71515673 175.80638 -19.920502 -107.61981 -19.893385 -107.7567 -0.71992546 179.9599
8420500000 -0.71229285 175.82312 -19.894756 -107.6751 -19.888735 -107.79305 -0.72886074 179.90343
8425750000 -0.7134915 175.85963 -19.880325 -107.64057 -19.873558 -107.73735 -0.73121893 179.8869
8431000000 -0.70844895 175.88313 -19.861786 -107.64677 -19.837593 -107.73763 -0.732198 179.84448
8436250000 -0.71083736 175.91394 -19.843327 -107.49358 -19.836361 -107.76054 -0.73479199 179.80527
8441500000 -0.71107167 175.89857 -19.825838 -107.49358 -19.802153 -107.71907 -0.73469418 179.74921
8446750000 -0.7057184 175.94751 -19.808977 -107.41636 -19.793097 -107.66506 -0.73249537 179.7569
8452000000 -0.70666867 175.95001 -19.787874 -107.49071 -19.774807 -107.61678 -0.73643219 179.72681
8457250000 -0.70440626 175.99109 -19.765385 -107.42329 -19.751112 -107.63285 -0.73987973 179.68443
8462500000 -0.70546222 175.9653 -19.740454 -107.39584 -19.739737 -107.6562 -0.74235886 179.67767
8467750000 -0.70386976 176.00252 -19.738054 -107.3721 -19.72649 -107.63457 -0.74609214 179.65828
8473000000 -0.70061421 176.00334 -19.713951 -107.39291 -19.686863 -107.50362 -0.73971713 179.60396
8478250000 -0.70077968 176.02112 -19.687939 -107.34604 -19.684469 -107.55925 -0.7372151 179.60083
8483500000 -0.7008611 176.02362 -19.66128 -107.39694 -19.671385 -107.54305 -0.74075806 179.54033
8488750000 -0.69602573 176.02748 -19.664083 -107.34196 -19.637781 -107.49229 -0.74594218 179.54353
8494000000 -0.69550651 176.03569 -19.631212 -107.25241 -19.614098 -107.57267 -0.74160874 179.53102
8499250000 -0.70075303 176.04314 -19.604546 -107.28047 -19.614513 -107.44279 -0.74368924 179.52032
8504500000 -0.69731796 176.02344 -19.596455 -107.3168 -19.595049 -107.50754 -0.74295622 179.46498
8509750000 -0.69431895 176.04726 -19.577717 -107.21532 -19.56155 -107.46629 -0.75026739 179.47307
8515000000 -0.69440818 176.01266 -19.574387 -107.17801 -19.558685 -107.45541 -0.74936897 179.43906
8520250000 -0.69399565 176.02798 -19.552256 -107.19289 -19.530077 -107.42307 -0.75412077 179.41013
8525500000 -0.69640654 176.0145 -19.515406 -107.24987 -19.51516 -107.44534 -0.74758762 179.38242
8530750000 -0.69448519 176.01176 -19.503317 -107.26244 -19.494041 -107.48019 -0.75094062 179.35931
8536000000 -0.69449246 175.97507 -19.480503 -107.23851 -19.470695 -107.48043 -0.75157213 179.35489
8541250000 -0.69543523 175.98398 -19.452595 -107.23206 -19.457508 -107.40719 -0.75583166 179.32707
8546500000 -0.69532317 175.97084 -19.440386 -107.19572 -19.440817 -107.39526 -0.75266504 179.29448
8551750000 -0.7004987 175.93307 -19.414804 -107.13801 -19.417959 -107.33929 -0.75658184 179.27933
8557000000 -0.70379007 175.93658 -19.409298 -107.17266 -19.408028 -107.33658 -0.75529665 179.27745
8562250000 -0.69869447 175.88844 -19.368362 -107.11094 -19.377357 -107.31482 -0.75192696 179.23994
8567500000 -0.70078975 175.86148 -19.366709 -107.0862 -19.354057 -107.22046 -0.75006473 179.22142
8572750000 -0.70088625 175.81773 -19.342487 -107.10092 -19.324718 -107.31033 -0.74813634 179.22234
8578000000 -0.70477265 175.77934 -19.326185 -107.12266 -19.320099 -107.3064 -0.74818414 179.17979
8583250000 -0.70314729 175.78079 -19.301506 -107.04124 -19.294319 -107.30288 -0.74460816 179.17545
8588500000 -0.70769006 175.71365 -19.28005 -107.12151 -19.280466 -107.25374 -0.74185658 179.17688
8593750000 -0.70658493 175.67393 -19.266449 -107.08353 -19.266716 -107.2783 -0.73995709 179.18585
8599000000 -0.70188659 175.63029 -19.249889 -107.00792 -19.241728 -107.25242 -0.73719084 179.16847
8604250000 -0.70896292 175.63065 -19.221262 -107.11243 -19.223547 -107.22071 -0.73750478 179.15652
8609500000 -0.71599573 175.5547 -19.210798 -107.04808 -19.213884 -107.31195 -0.73834044 179.16681
8614750000 -0.71200818 175.52058 -19.191051 -107.07834 -19.185085 -107.3266 -0.73397809 179.14973
8620000000 -0.71502119 175.49292 -19.179134 -107.04382 -19.164818 -107.16274 -0.73818374 179.14835
8625250000 -0.71440977 175.44666 -19.153908 -107.00301 -19.141016 -107.22833 -0.73512191 179.14496
8630500000 -0.71854103 175.40906 -19.134098 -107.04352 -19.122858 -107.15943 -0.73546034 179.16322
8635750000 -0.71955156 175.33681 -19.117989 -107.10132 -19.098835 -107.23637 -0.73406649 179.13504
8641000000 -0.72523654 175.30255 -19.098885 -107.06059 -19.084137 -107.20892 -0.73490506 179.12628
8646250000 -0.72844326 175.23186 -19.069317 -107.03946 -19.063414 -107.21603 -0.73099101 179.08589
8651500000 -0.72922647 175.20718 -19.05971 -106.95458 -19.046886 -107.146 -0.7317872 179.09212
8656750000 -0.73511308 175.15698 -19.037468 -107.00061 -19.027096 -107.1899 -0.72875863 179.1114
8662000000 -0.73423976 175.09984 -19.022814 -107.08643 -19.001236 -107.16467 -0.72306919 179.09245
8667250000 -0.73953813 175.0569 -19.001322 -106.99276 -18.992184 -107.18843 -0.72281253 179.10112
8672500000 -0.73903632 174.95694 -18.966993 -106.98006 -18.970062 -107.17326 -0.71768546 179.06541
8677750000 -0.74494749 174.89151 -18.959904 -107.02486 -18.93474 -107.12028 -0.71618015 179.06319
8683000000 -0.7484042 174.83061 -18.926752 -107.03442 -18.921602 -107.17114 -0.71025687 179.0719
8688250000 -0.75103742 174.77776 -18.92251 -107.01877 -18.912434 -107.15623 -0.70593697 179.09369
8693500000 -0.75264949 174.7272 -18.900986 -106.94405 -18.90172 -107.17244 -0.70646864 179.0589
8698750000 -0.750983 174.65105 -18.891741 -107.06651 -18.866373 -107.14783 -0.69983357 179.09525
8704000000 -0.75675124 174.61168 -18.871027 -107.04842 -18.859381 -107.13425 -0.70337951 179.06297
8709250000 -0.75613934 174.55487 -18.857395 -107.04014 -18.839167 -107.18356 -0.70189685 179.08939
8714500000 -0.75882274 174.49028 -18.830959 -107.02187 -18.813919 -107.09865 -0.69988358 179.09528
8719750000 -0.76099324 174.43457 -18.799841 -106.98969 -18.796021 -107.14824 -0.69513857 179.08482
8725000000 -0.76347262 174.39507 -18.78554 -107.04541 -18.778902 -107.17776 -0.69823587 179.09666
8730250000 -0.76484418 174.34096 -18.772058 -106.9968 -18.755573 -107.1787 -0.69595885 179.06291
8735500000 -0.76867622 174.28326 -18.744091 -107.00076 -18.740831 -107.13599 -0.69654208 179.08946
8740750000 -0.76538217 174.24164 -18.720116 -107.09689 -18.730898 -107.23067 -0.6955474 179.07581
8746000000 -0.77061182 174.18275 -18.702806 -107.03455 -18.691952 -107.20533 -0.69472432 179.0919
8751250000 -0.77410227 174.13867 -18.675814 -107.04356 -18.673014 -107.16659 -0.68866163 179.08641
8756500000 -0.77395153 174.07217 -18.673674 -107.10396 -18.653034 -107.2004 -0.68517947 179.06108
8761750000 -0.77998656 174.00764 -18.639986 -107.06331 -18.640709 -107.17307 -0.68954575 179.06313
8767000000 -0.78003079 173.9592 -18.62785 -107.04642 -18.614922 -107.13446 -0.68333542 179.05557
8772250000 -0.78362721 173.91219 -18.617601 -107.01786 -18.583126 -107.17399 -0.68184263 179.0197
8777500000 -0.78197294 173.83289 -18.587296 -107.03148 -18.586493 -107.24398 -0.68275267 179.04568
8782750000 -0.782929 173.81006 -18.556843 -107.04425 -18.560163 -107.27378 -0.67771637 179.02357
8788000000 -0.78852206 173.7354 -18.540924 -107.04047 -18.531704 -107.1767 -0.67691833 178.98833
8793250000 -0.78603441 173.71309 -18.521677 -107.01051 -18.507078 -107.21204 -0.67189276 179.01512
8798500000 -0.79161489 173.6499 -18.51824 -107.03358 -18.488111 -107.21122 -0.66619527 179.01476
8803750000 -0.78695607 173.62296 -18.479656 -107.03692 -18.463196 -107.17253 -0.66929877 179.0204
8809000000 -0.78589123 173.57266 -18.459099 -107.08757 -18.448071 -107.18555 -0.66641146 178.99559
8814250000 -0.78669596 173.53595 -18.448917 -107.06813 -18.431812 -107.2397 -0.66348881 179.00458
8819500000 -0.7825343 173.52098 -18.408182 -107.07362 -18.39465 -107.17286 -0.66765499 178.99561
8824750000 -0.78580528 173.47333 -18.392187 -107.02386 -18.383883 -107.20579 -0.668733 178.98093
8830000000 -0.78157461 173.44719 -18.365839 -107.11175 -18.358007 -107.21963 -0.66788542 178.99583
8835250000 -0.78644472 173.39278 -18.351742 -107.0844 -18.342163 -107.24035 -0.66657448 178.98483
8840500000 -0.78767657 173.37912 -18.334091 -107.08302 -18.320816 -107.23741 -0.67297524 178.96095
8845750000 -0.79063839 173.35251 -18.31254 -107.07779 -18.306534 -107.24431 -0.67618972 178.92731
8851000000 -0.78575581 173.32912 -18.293896 -107.02663 -18.272419 -107.15938 -0.67169058 178.91983
8856250000 -0.78724456 173.31836 -18.263124 -107.07495 -18.254919 -107.22375 -0.67640191 178.89468
8861500000 -0.79043925 173.26884 -18.248955 -107.09385 -18.231007 -107.21573 -0.67652792 178.89952
8866750000 -0.78862149 173.25832 -18.232277 -107.0465 -18.20896 -107.22808 -0.67531586 178.89578
8872000000 -0.79084021 173.24117 -18.200497 -107.01482 -18.189346 -107.26573 -0.67649972 178.84723
8877250000 -0.79012132 173.18234 -18.177561 -107.1115 -18.168514 -107.22879 -0.67576081 178.82379
8882500000 -0.78479332 173.19534 -18.149668 -107.0459 -18.133467 -107.23731 -0.67546475 178.79292
8887750000 -0.78431213 173.16093 -18.134304 -107.14823 -18.116798 -107.32645 -0.67148888 178.75175
8893000000 -0.78467816 173.1239 -18.10907 -107.11293 -18.115324 -107.22425 -0.67771804 178.76183
8898250000 -0.78326625 173.10773 -18.093605 -107.13001 -18.07506 -107.19667 -0.67520267 178.72769
8903500000 -0.77818811 173.10258 -18.055513 -107.11587 -18.052023 -107.25891 -0.6732198 178.70105
8908750000 -0.77905709 173.08633 -18.041925 -107.11581 -18.025429 -107.27158 -0.67408371 178.67442
8914000000 -0.7791006 173.07458 -18.010477 -107.1305 -18.008181 -107.34564 -0.68143517 178.66524
8919250000 -0.77869993 173.08656 -17.98303 -107.20022 -17.971083 -107.31387 -0.67973727 178.65173
8924500000 -0.77748257 173.07756 -17.962011 -107.19416 -17.951738 -107.32835 -0.68651783 178.5992
8929750000 -0.77484232 173.06508 -17.944845 -107.23026 -17.933254 -107.37198 -0.6878314 178.59625
8935000000 -0.77529526 173.08191 -17.920843 -107.21486 -17.90901 -107.29794 -0.68570924 178.56194
8940250000 -0.77244037 173.10066 -17.89765 -107.14617 -17.89345 -107.33218 -0.69173408 178.53258
8945500000 -0.77056903 173.09366 -17.876099 -107.22915 -17.877304 -107.32927 -0.69345605 178.46872
8950750000 -0.76978618 173.07811 -17.850897 -107.26192 -17.832951 -107.33574 -0.68744725 178.45499
8956000000 -0.76837748 173.06378 -17.818609 -107.22695 -17.810743 -107.32144 -0.69650215 178.44089
8961250000 -0.76459718 173.09641 -17.791536 -107.18552 -17.786514 -107.37666 -0.7011224 178.38271
8966500000 -0.76973152 173.09134 -17.768608 -107.2506 -17.758221 -107.35522 -0.70225441 178.35217
8971750000 -0.76638687 173.0724 -17.736956 -107.2682 -17.726637 -107.40414 -0.70478934 178.30914
8977000000 -0.76413965 173.08269 -17.717012 -107.27769 -17.705687 -107.38156 -0.70501339 178.29288
8982250000 -0.76147193 173.0686 -17.699923 -107.32723 -17.676838 -107.44746 -0.70838064 178.23601
8987500000 -0.75728744 173.07796 -17.661951 -107.32264 -17.654703 -107.40588 -0.70879805 178.19598
8992750000 -0.76219636 173.04124 -17.643837 -107.31599 -17.630737 -107.4416 -0.71258324 178.12491
8998000000 -0.76250058 173.04967 -17.625086 -107.32101 -17.616371 -107.4326 -0.7163952 178.11224
9003250000 -0.75814986 173.06273 -17.593304 -107.30823 -17.580387 -107.44315 -0.7116335 178.07834
9008500000 -0.75809669 173.07471 -17.561136 -107.29178 -17.556683 -107.42346 -0.71627116 178.04352
9013750000 -0.75813204 173.01837 -17.547707 -107.3621 -17.528128 -107.46218 -0.71843439 177.98495
9019000000 -0.74919689 173.05794 -17.503504 -107.39561 -17.495714 -107.49295 -0.72059488 177.95062
9024250000 -0.74915034 173.0627 -17.486797 -107.36568 -17.474911 -107.48162 -0.72585958 177.92194
9029500000 -0.7502439 173.06418 -17.46941 -107.52696 -17.457043 -107.52866 -0.73511851 177.89317
9034750000 -0.74708468 173.08253 -17.432146 -107.49165 -17.418798 -107.60759 -0.73872 177.87981
9040000000 -0.74533349 173.05791 -17.397352 -107.46703 -17.393654 -107.56284 -0.73303664 177.82077
9045250000 -0.74377716 173.0782 -17.37822 -107.46629 -17.370178 -107.64056 -0.73961496 177.76221
9050500000 -0.7400586 173.07442 -17.359055 -107.48936 -17.34004 -107.61258 -0.74170202 177.73221
9055750000 -0.74193883 173.06004 -17.334839 -107.5734 -17.306149 -107.64587 -0.74725878 177.69127
9061000000 -0.74517548 173.07849 -17.312496 -107.57706 -17.284389 -107.65168 -0.75010544 177.67645
9066250000 -0.74020964 173.06963 -17.268438 -107.55412 -17.268656 -107.65299 -0.75108832 177.60954
9071500000 -0.74426341 173.06453 -17.251644 -107.59503 -17.244705 -107.61446 -0.75706172 177.55602
9076750000 -0.74303883 173.06396 -17.217928 -107.59397 -17.196089 -107.83555 -0.7592833 177.51346
9082000000 -0.74331456 173.06329 -17.201376 -107.65277 -17.181995 -107.70686 -0.76701552 177.45206
9087250000 -0.74569184 173.0472 -17.172606 -107.66025 -17.149452 -107.82452 -0.76806033 177.40456
9092500000 -0.74539268 173.03169 -17.138718 -107.71735 -17.127485 -107.7951 -0.76782435 177.33794
9097750000 -0.74169427 173.02713 -17.10878 -107.78283 -17.096539 -107.84833 -0.77039456 177.31888
9103000000 -0.74255019 172.98907 -17.078444 -107.75609 -17.07023 -107.88823 -0.77251554 177.27577
9108250000 -0.74519825 172.97234 -17.052273 -107.75028 -17.031092 -107.90044 -0.77302647 177.22896
9113500000 -0.74431944 172.93727 -17.025824 -107.82664 -17.021885 -107.90003 -0.77706534 177.17206
9118750000 -0.74451625 172.91287 -17.007811 -107.84669 -16.986565 -107.89655 -0.77420294 177.11494
9124000000 -0.74044359 172.89146 -16.969046 -107.91114 -16.962492 -108.02791 -0.77815968 177.10196
9129250000 -0.74612164 172.85913 -16.951187 -107.95038 -16.92955 -108.06891 -0.77685648 177.06148
9134500000 -0.74585563 172.82405 -16.922985 -107.91051 -16.909437 -108.06116 -0.77949929 177.02132
9139750000 -0.74315411 172.82809 -16.881538 -107.98037 -16.874445 -108.1299 -0.77816588 177.02101
9145000000 -0.74533898 172.80409 -16.865652 -108.07618 -16.852663 -108.16669 -0.78733695 176.95433
9150250000 -0.74547619 172.75513 -16.827431 -108.14333 -16.831324 -108.21649 -0.78600031 176.93428
9155500000 -0.74921644 172.75017 -16.80921 -108.10786 -16.799006 -108.20692 -0.79328901 176.90134
9160750000 -0.75010419 172.71838 -16.786371 -108.22052 -16.764248 -108.27684 -0.79428208 176.85435
9166000000 -0.75186956 172.69748 -16.760815 -108.15087 -16.741325 -108.30561 -0.79691833 176.82739
9171250000 -0.75658011 172.65257 -16.733429 -108.27018 -16.717146 -108.3191 -0.79918969 176.78212
9176500000 -0.75726736 172.62047 -16.701799 -108.30627 -16.674824 -108.40017 -0.80175322 176.73836
9181750000 -0.76007992 172.56035 -16.680908 -108.3448 -16.65447 -108.49078 -0.80423099 176.68747
9187000000 -0.76569712 172.52654 -16.654924 -108.44548 -16.631725 -108.49374 -0.80194968 176.62737
9192250000 -0.77040446 172.49767 -16.626316 -108.4564 -16.597204 -108.54032 -0.80247861 176.60738
9197500000 -0.76970559 172.41664 -16.592463 -108.52489 -16.576319 -108.62646 -0.80994886 176.5815
9202750000 -0.77565193 172.35878 -16.560925 -108.58389 -16.563059 -108.62577 -0.81058025 176.53629
9208000000 -0.78086287 172.29881 -16.531384 -108.60133 -16.521469 -108.69367 -0.81618786 176.50974
9213250000 -0.78279597 172.28586 -16.509233 -108.68064 -16.496063 -108.77974 -0.80901504 176.4397
9218500000 -0.78599292 172.22626 -16.486515 -108.7293 -16.46855 -108.79372 -0.81288362 176.4326
9223750000 -0.78787327 172.14774 -16.473234 -108.75518 -16.446297 -108.85245 -0.81013459 176.38269
9229000000 -0.79014152 172.11017 -16.445656 -108.80666 -16.416075 -108.94028 -0.81305426 176.35229
9234250000 -0.7912181 172.03011 -16.404959 -108.91418 -16.389723 -108.96272 -0.81774533 176.34131
9239500000 -0.80119556 171.95805 -16.377741 -108.94852 -16.355709 -109.03031 -0.81395864 176.30588
9244750000 -0.80025506 171.91084 -16.358389 -109.00271 -16.328697 -109.08681 -0.81219697 176.28403
